# HZ S RI R 50
100000000 -0.9903126189225356 0.12593381970104478
101785714 -0.9882118323725286 0.1285740719298259
103571428 -0.9875933172483802 0.1297376731234768
105357142 -0.9871843796167723 0.1329637383969859
107142856 -0.9869394856188194 0.1339050765994023
108928570 -0.9859439015815747 0.13682763963860814
110714284 -0.9864094645145303 0.13977001528808067
112499998 -0.9854277054175543 0.14160414743524483
114285712 -0.9860395293960134 0.14310761680860007
116071426 -0.9850843950220082 0.1460220382959778
117857140 -0.9846904660361923 0.14819687099064094
119642854 -0.9843210832885196 0.14958840009525437
121428568 -0.9841489820615172 0.15157788590579738
123214282 -0.983297303602882 0.1549481283056406
124999996 -0.982706143771901 0.1567298634292795
126785710 -0.9823474026443666 0.15810517987868059
128571424 -0.9811922723463885 0.16062080788094338
130357138 -0.981951936493965 0.16301315103486608
132142852 -0.9816718034146954 0.16556190561084755
133928566 -0.9808275295106322 0.16841430077755348
135714280 -0.9806064588910874 0.16888689189996656
137499994 -0.9792942711389114 0.17162144644723198
139285708 -0.9784556988659131 0.17384853685909274
141071422 -0.9780894519770508 0.1773208441663287
142857136 -0.9785211675034011 0.1757155981631912
144642850 -0.9784786833373147 0.1809590314089411
146428564 -0.977839911342826 0.18360356601554
148214278 -0.9758883554883081 0.1857069907826586
149999992 -0.9766298158986866 0.18680963091240144
151785706 -0.9762123972271842 0.19167646556168116
153571420 -0.9764125637482813 0.18888069418849068
155357134 -0.9742013550815812 0.19661152021344888
157142848 -0.9750552610708553 0.19399888048090566
158928562 -0.9741685770469394 0.196801541449825
160714276 -0.9731196672517961 0.2001787604838731
162499990 -0.9730799771067425 0.20462384555739718
164285704 -0.9738404967987189 0.20384335080557273
166071418 -0.9733549927144249 0.20616740120801968
167857132 -0.9721875251953999 0.20960422649763324
169642846 -0.9710343251992376 0.21058533432976487
171428560 -0.9701244172726996 0.2115504705665193
173214274 -0.9684123014821655 0.21741908826197312
174999988 -0.9697492162481829 0.2169319960744253
176785702 -0.9688342813245545 0.21984217969182981
178571416 -0.9679181283856945 0.22243422466193188
180357130 -0.968146406720927 0.22460763557192884
182142844 -0.9674520051714267 0.22597899412839195
183928558 -0.9674373589266742 0.2297433734958099
185714272 -0.9652253017780236 0.23274249407023648
187499986 -0.9665677000013659 0.23202367619724418
189285700 -0.965588007223362 0.23560330440880914
191071414 -0.9633319742674363 0.23906266515483213
192857128 -0.9642838487136499 0.2401848840089343
194642842 -0.9642702691887964 0.24037043791868784
196428556 -0.9630086389844872 0.24337712005418288
198214270 -0.9622990834582563 0.24523878617624917
199999984 -0.9612684883116946 0.24983760266805016
201785698 -0.9610309067612542 0.2516918651398215
203571412 -0.9615166690232683 0.25307810759108706
205357126 -0.9599487210813872 0.25446517780843714
207142840 -0.9595604984398821 0.25888488129459564
208928554 -0.9590289025552523 0.25850784860030607
210714268 -0.9595869010118325 0.2594280293221922
212499982 -0.957272473346213 0.2634386320400154
214285696 -0.957698944495535 0.26479136590717456
216071410 -0.9555357866827641 0.26917038492343204
217857124 -0.9574616784149474 0.26686791498842904
219642838 -0.9558367412085363 0.2709494803379176
221428552 -0.9539567995723331 0.27468636062903434
223214266 -0.9540869353623055 0.27779516506435525
224999980 -0.9532264091873043 0.27783947617647964
226785694 -0.9523350485503386 0.2805910343973793
228571408 -0.9514356826222918 0.28429381752741495
230357122 -0.952071888376237 0.28400886474291553
232142836 -0.9509635748205821 0.2859786275035543
233928550 -0.9492572419986262 0.28965829194314735
235714264 -0.9488315665132965 0.29126226588070425
237499978 -0.9466495369145551 0.29464926490837456
239285692 -0.9479748884975218 0.29551548337625594
241071406 -0.9463701625300878 0.29774216451672997
242857120 -0.9451526723104103 0.3000732057531385
244642834 -0.946285965559503 0.2997088202645753
246428548 -0.9455337228815354 0.30149176435804564
248214262 -0.9448342721869387 0.3034896039700455
249999976 -0.9444426782557754 0.3070124675772557
251785690 -0.9421110236940952 0.3109461166293788
253571404 -0.9417158728893411 0.3125611629144323
255357118 -0.9405037395463738 0.3146814375164411
257142832 -0.9414025155539113 0.3144993199389198
258928546 -0.9397767651888178 0.3180113861496608
260714260 -0.9384436124140793 0.3216894747543212
262499974 -0.937436161210306 0.32250599124088064
264285688 -0.9374674603662011 0.32435212472813646
266071402 -0.9371099203502208 0.32740533524264137
267857116 -0.9357832900423917 0.33014811487887
269642830 -0.9359923238778306 0.32984232195102375
271428544 -0.9338658698768761 0.3353414662722177
273214258 -0.9321758568136536 0.3354812251345803
274999972 -0.9329672672867608 0.33599894301236644
276785686 -0.93189303012621 0.3379986690816555
278571400 -0.9297216779991921 0.34116653444847517
280357114 -0.9312157954102126 0.3435968770270099
282142828 -0.9297170246611349 0.34531559609661683
283928542 -0.9272436135892175 0.3464111056600461
285714256 -0.9261069862268569 0.34918169853443687
287499970 -0.9248222300876728 0.35231231696003185
289285684 -0.9253840195473523 0.35362071205138457
291071398 -0.9254003422609932 0.35415155217154487
292857112 -0.9244964387483043 0.35592508974838843
294642826 -0.9230121565689448 0.358196288821538
296428540 -0.9231446143602822 0.3596024253949541
298214254 -0.9222148265919663 0.36102941220358997
299999968 -0.9211309937569229 0.3646179312570206
301785682 -0.9189055419732516 0.36884494092574954
303571396 -0.918787738140222 0.3714558070142415
305357110 -0.91726604638913 0.37140816185220915
307142824 -0.9169575733118354 0.37353372707232574
308928538 -0.9178087897048574 0.3723754234783835
310714252 -0.9170370709839621 0.37633327640801
312499966 -0.9129398441564767 0.3834848277867272
314285680 -0.9159040285514384 0.3783020597028661
316071394 -0.9138883914883504 0.38363938670908143
317857108 -0.9104950831887105 0.3865397180129075
319642822 -0.9129991221967898 0.38791420856866926
321428536 -0.9133222545139754 0.3862854184490205
323214250 -0.908700188719188 0.3922917946816722
324999964 -0.9082293174360686 0.39397026476733343
326785678 -0.9069663089001788 0.39693319902019364
328571392 -0.9076117659459703 0.3977424720020078
330357106 -0.9051024739912913 0.3998075604661485
332142820 -0.9062550832580446 0.40079759482570604
333928534 -0.9041572103443922 0.4037719807703577
335714248 -0.9040966379226931 0.4037650384254432
337499962 -0.9016821002532927 0.4095493114438718
339285676 -0.9003874184253933 0.4124062182976484
341071390 -0.8988328162134839 0.4108769919334951
342857104 -0.8987989664625956 0.41337973350056406
344642818 -0.8987213791057888 0.4172431134898789
346428532 -0.898047311499225 0.4143792851028151
348214246 -0.8948148942835349 0.4214523790234464
349999960 -0.8966500181558484 0.41876384076884
351785674 -0.8947911157345609 0.4226825879041513
353571388 -0.8910424243668411 0.42717048819637055
355357102 -0.8928714225950145 0.4290988193497774
357142816 -0.8924420817327292 0.4307925890896659
358928530 -0.8907352617024454 0.4317249912582774
360714244 -0.8897432781228115 0.43282013259541197
362499958 -0.8910962111718698 0.43094557413401996
364285672 -0.8862646978173316 0.4411852142849598
366071386 -0.8891232144344519 0.43653093273708216
367857100 -0.8855984857051197 0.4425976431485801
369642814 -0.8876819481268978 0.4398655781046431
371428528 -0.8848586724988607 0.44626742423668114
373214242 -0.88340903793902 0.4468048718949155
374999956 -0.8805281703670343 0.45147536735425664
376785670 -0.8802711879340801 0.45188968110507016
378571384 -0.8819426276366877 0.45014092290949415
380357098 -0.8796342286482673 0.45514858808391184
382142812 -0.8813485772898522 0.45204805206111026
383928526 -0.8770545427536545 0.4596964560171776
385714240 -0.8775147984727226 0.4601596450106817
387499954 -0.8769362456001308 0.4615353232540663
389285668 -0.8755345861703154 0.4613493286112642
391071382 -0.87633656948889 0.46153725992570643
392857096 -0.8740223273779675 0.46618791761148615
394642810 -0.8695407548197197 0.4737178993641147
396428524 -0.8686521434709983 0.4741812939058867
398214238 -0.8695003618225281 0.4714101219771036
399999952 -0.870424566184671 0.47164564372922996
401785666 -0.8669260179335325 0.4760197384999531
403571380 -0.8656198299218996 0.47926425616470253
405357094 -0.8641423797618998 0.481799613494846
407142808 -0.865382110820487 0.4808468810702112
408928522 -0.85861686008054 0.4910082965859437
410714236 -0.8618464460961711 0.48536241128212393
412499950 -0.8595377119444539 0.48930638406089005
414285664 -0.8598387348901705 0.4893107628737436
416071378 -0.8597022000610405 0.48951596015748094
417857092 -0.8561935627316547 0.494091118039929
419642806 -0.8547738640623024 0.4973131976364785
421428520 -0.8547243337304481 0.49799726444278275
423214234 -0.8529453199488308 0.49986915620446426
424999948 -0.8544655581071183 0.5006596696382605
426785662 -0.8508047408705988 0.5032210431757305
428571376 -0.8483337463330178 0.5074081444351012
430357090 -0.8493684943744957 0.5101123144174509
432142804 -0.8504258432020592 0.5040446401983337
433928518 -0.8439496108885456 0.5135863828239773
435714232 -0.8441809974554183 0.512889662876875
437499946 -0.8429016684501626 0.5157161003865403
439285660 -0.8447278896420641 0.5139729709704757
441071374 -0.8427354494746042 0.5167081274873226
442857088 -0.8430307176631353 0.5177791301082619
444642802 -0.8349558969912151 0.5269387723682853
446428516 -0.8379542349038388 0.5241504815822948
448214230 -0.8358003703578395 0.5251827293200189
449999944 -0.8353706595967918 0.5258095320216686
451785658 -0.8332252263118156 0.5285625158341396
453571372 -0.8343826879623304 0.5282441630903362
455357086 -0.83177229201639 0.5321004382285498
457142800 -0.8332877189097813 0.530887026990881
458928514 -0.8278380129967288 0.5356798145738713
460714228 -0.8273036674010372 0.539708737877407
462499942 -0.8257622448849459 0.5381954553069186
464285656 -0.8254000770080245 0.5417487918512215
466071370 -0.8208912269686193 0.5449342835472908
467857084 -0.824112198583079 0.5425780534349525
469642798 -0.8203771936300869 0.5440865918011664
471428512 -0.8219350157143077 0.5461910369329326
473214226 -0.8209750454542748 0.5491904123606284
474999940 -0.8156387498775836 0.5550546947753526
476785654 -0.8159890825638346 0.5529045589921232
478571368 -0.8186051308020064 0.5534146817418847
480357082 -0.8117250141247939 0.5596822608762873
482142796 -0.8123791611174217 0.5593784099617417
483928510 -0.8100058367022092 0.5611763298981859
485714224 -0.8109675893383566 0.5615721943526223
487499938 -0.8116101796489712 0.5602216808982848
489285652 -0.8103764315314026 0.5653688305486803
491071366 -0.8064646734540587 0.5665625358884486
492857080 -0.8114446611696109 0.5634316787332643
494642794 -0.8080527265790988 0.5656640865048765
496428508 -0.8027131988502009 0.5737955851683113
498214222 -0.8062209955944908 0.5706346516468846
499999936 -0.8030338435142951 0.5727805810145411
501785650 -0.800081107520675 0.5779511781150818
503571364 -0.7978621880238693 0.5800914030270361
505357078 -0.7952179207943744 0.5802688162483977
507142792 -0.793532137088463 0.5868029202312796
508928506 -0.7940505126597928 0.5844928001130261
510714220 -0.7995108251341925 0.5816121696987783
512499934 -0.7863901821437211 0.5906169617466376
514285648 -0.7921392319147934 0.5874594251080901
516071362 -0.7857498533373404 0.5945631909694964
517857076 -0.7870457949711878 0.5939711404774769
519642790 -0.7877877671728045 0.5959041703874833
521428504 -0.7830223189504139 0.5949449658744246
523214218 -0.788753623204615 0.5939881639524164
524999932 -0.7824275648740385 0.6018511617925808
526785646 -0.782655228103329 0.5998253135803527
528571360 -0.7841316295573938 0.5984623348290448
530357074 -0.7767953965979583 0.6066008394447591
532142788 -0.7783603369202502 0.6046130423109579
533928502 -0.777673919964389 0.6072106099260973
535714216 -0.7765734551785717 0.6070108069026241
537499930 -0.7752227878288331 0.6113051403634945
539285644 -0.773826214425465 0.609974443811335
541071358 -0.7676525460875162 0.6156950220451726
542857072 -0.7680675103605891 0.6182069612368328
544642786 -0.7706218167158837 0.6161756767893279
546428500 -0.7697604569713479 0.6191598857875785
548214214 -0.7663360029758906 0.6224968173545253
549999928 -0.7606108142573427 0.627713151800292
551785642 -0.763494525510515 0.6265662336703017
553571356 -0.7619214651794302 0.6265485952945683
555357070 -0.7641803052506624 0.6254197643980316
557142784 -0.7587970487173699 0.6313670715423942
558928498 -0.761678101095605 0.6322321439049675
560714212 -0.7604181211296785 0.6296147402672067
562499926 -0.755783891661854 0.6307174087691108
564285640 -0.7588023634204168 0.6311597247553562
566071354 -0.7478862904324994 0.6404213594948365
567857068 -0.7535464513914238 0.6404389998993602
569642782 -0.7480474245960339 0.6395849809037644
571428496 -0.7507684429068144 0.6447313016588597
573214210 -0.7507793346445609 0.6388705954882723
574999924 -0.7447292516247153 0.6423440542120167
576785638 -0.744480653833819 0.6488117538210215
578571352 -0.7441595274914254 0.6449513467713035
580357066 -0.7388205602396862 0.6545710107278953
582142780 -0.7389954651885491 0.6501381523475832
583928494 -0.7355677211575747 0.6570788535288438
585714208 -0.743994019468133 0.6528567276417037
587499922 -0.7340881678013933 0.6515395603972578
589285636 -0.7326517611364393 0.6585717205417722
591071350 -0.7383881122707103 0.6550423710001361
592857064 -0.7287696354527691 0.6634823132139971
594642778 -0.7301571615628335 0.6623222818632136
596428492 -0.7318003295432256 0.6619856377030906
598214206 -0.725074838356864 0.6692978549317429
599999920 -0.7229428526227484 0.6686731904607303
601785634 -0.7199955134237875 0.6698857121029136
603571348 -0.7216737074503149 0.672147114731118
605357062 -0.7136465502804817 0.6787498089493865
607142776 -0.7149490931336341 0.6768624959824272
608928490 -0.7158851699456814 0.6768375566565942
610714204 -0.7149087979401582 0.6736221658338841
612499918 -0.7152808595840833 0.679976617229408
614285632 -0.7050194229254609 0.6831967278103053
616071346 -0.706348508489162 0.6819937283892211
617857060 -0.7091372906388327 0.6834676087221965
619642774 -0.7087281793446345 0.6840205885520938
621428488 -0.7042951550223392 0.6889584714483693
623214202 -0.7018882132198248 0.692662131511684
624999916 -0.6994682528722012 0.6920013849026336
626785630 -0.6986649092535493 0.6938160814856318
628571344 -0.7032230564069754 0.6912747667500413
630357058 -0.6933315442157785 0.6969848844418984
632142772 -0.6919847951018895 0.7007275317648508
633928486 -0.6898464830093753 0.6997525811912655
635714200 -0.6853527075602561 0.7011835288545649
637499914 -0.6887170854779124 0.6988400587661828
639285628 -0.6883106268046111 0.701498201498133
641071342 -0.6840749084940138 0.7060689727454381
642857056 -0.6880156121647031 0.7062070046778387
644642770 -0.6828307216048599 0.7074528935958738
646428484 -0.6795258386187578 0.7119309918349211
648214198 -0.6786130232855868 0.7148373938751629
649999912 -0.6776942158043509 0.7134869439517209
651785626 -0.6737873676990301 0.7161528522827975
653571340 -0.6774117316050505 0.7153635497672941
655357054 -0.675341188702372 0.7161515655597603
657142768 -0.665560344241113 0.7227296848064503
658928482 -0.6660766022244248 0.7224469643637624
660714196 -0.6697862601460258 0.7192102245483742
662499910 -0.6658903542828652 0.7274720726219989
664285624 -0.6657436242731071 0.722281538379381
666071338 -0.6601841345367443 0.7256623291841068
667857052 -0.6575173592328265 0.728368435034716
669642766 -0.6591692058542893 0.7297376503528047
671428480 -0.649025189393196 0.7358567204244275
673214194 -0.6581812926357483 0.7306715726388358
674999908 -0.6582217667162492 0.7313918750457599
676785622 -0.6498097123879436 0.7385620041027069
678571336 -0.6452631180331982 0.7387710072513853
680357050 -0.6462414791215553 0.740248395438131
682142764 -0.6453426961433867 0.7399455584732941
683928478 -0.6518581860160388 0.7346628423347836
685714192 -0.6416542767317303 0.7446093321831778
687499906 -0.6454874502377953 0.7443785038124741
689285620 -0.6378235314544818 0.7452909432425374
691071334 -0.6427881425577026 0.7407005524217817
692857048 -0.6346096557405124 0.7475779069184909
694642762 -0.6313361489198716 0.7527209302559178
696428476 -0.635752400820031 0.7513241537264957
698214190 -0.6270530052355049 0.7541077470642844
699999904 -0.6304802516349558 0.7544901217100995
701785618 -0.6302691388214704 0.7550858031398406
703571332 -0.6290302025780156 0.7536313838125315
705357046 -0.6322904210427902 0.7563896919317046
707142760 -0.6251780260340637 0.7565063918317038
708928474 -0.6216582624662162 0.7586174794578259
710714188 -0.6150053474447158 0.7662425487840273
712499902 -0.6204278715937837 0.7589172956072622
714285616 -0.6205318732903146 0.7630815516270681
716071330 -0.3660943706861039 0.9008145763484325
717857044 -0.6179663099667572 0.7599629444896799
719642758 -0.6103054414411745 0.767896996582641
721428472 -0.6162587419396208 0.7677789135867605
723214186 -0.6092304087216059 0.7715079175549386
724999900 -0.6162287053712714 0.766367231830676
726785614 -0.6172689399447556 0.7674052543826458
728571328 -0.6093024113077804 0.7732181332663233
730357042 -0.6055594386923451 0.7743723292502901
732142756 -0.6010697074092792 0.7756662864854756
733928470 -0.6008106574127497 0.7788788920677278
735714184 -0.6068697929477874 0.7731192161289454
737499898 -0.6021793253548507 0.7783126988710425
739285612 -0.6002002011136334 0.77768249302366
741071326 -0.5978350008279874 0.7776184545265318
742857040 -0.5993987188906783 0.7802937572521537
744642754 -0.59491050386631 0.7836866962611739
746428468 -0.5971380627129562 0.7839217436243607
748214182 -0.5962331922780585 0.7830055584797205
749999896 -0.5832812931277978 0.7884981403369135
751785610 -0.5956375512866012 0.7852492494751044
753571324 -0.5804585963486358 0.7925997455071945
755357038 -0.5850056408480573 0.7903510096494205
757142752 -0.5840575508499816 0.7916270825966399
758928466 -0.5842177970878005 0.7927187189199889
760714180 -0.5766053400345889 0.7933565565773071
762499894 -0.5824606475805449 0.7930502682673144
764285608 -0.571887340259042 0.7942879019897596
766071322 -0.5675872509286907 0.7983998021694828
767857036 -0.5738308682954504 0.7975009397295441
769642750 -0.5709787372242153 0.7995515961114016
771428464 -0.5657280547432195 0.8036959204952391
773214178 -0.5683696314128881 0.8013582049001478
774999892 -0.5681452944312897 0.8047313475605649
776785606 -0.5645425911457234 0.8037869048340958
778571320 -0.5587769981233418 0.8069574005280461
780357034 -0.5701949942780395 0.8019932590864338
782142748 -0.5500182952157237 0.8087317304763141
783928462 -0.5581127343885693 0.8116923270955735
785714176 -0.5483893480428413 0.8090534832391567
787499890 -0.5542567123661842 0.8081295314165091
789285604 -0.5575866558813031 0.8088709588826541
791071318 -0.5501552142305098 0.8137579234463601
792857032 -0.5411766616870677 0.813702862221837
794642746 -0.5414898223083882 0.8178198524254151
796428460 -0.5386629493949636 0.8190849827990044
798214174 -0.5382521820003643 0.8159954082720958
799999888 -0.5417324280180195 0.8168652362268837
801785602 -0.5345062537805647 0.8208668379676244
803571316 -0.544025826226091 0.8151666418085681
805357030 -0.5260229110164647 0.8255315408170205
807142744 -0.5365417170169016 0.8236674281805736
808928458 -0.5201993139414175 0.8236498664708924
810714172 -0.5163628351457509 0.8271778417624379
812499886 -0.5265983582801191 0.8272629608437407
814285600 -0.5250662971835628 0.8289942683113213
816071314 -0.5308705241216788 0.8244189617500287
817857028 -0.5165533951902235 0.8322181053678376
819642742 -0.5148886731475915 0.8312318671872259
821428456 -0.5208712962846971 0.8304111259300492
823214170 -0.5151950389401752 0.8374398705968933
824999884 -0.5094788142891301 0.8321346156276535
