# HZ S RI R 50
100000000 -0.06408920488879355 0.10405623482805271
101785714 -0.0629141483520315 0.10591523874987384
103571428 -0.06231764471284591 0.10737743995339105
105357142 -0.06152358703835602 0.10932602252992374
107142856 -0.06049809848295529 0.11081992306648833
108928570 -0.05934461200552629 0.1123205843059806
110714284 -0.05858258604127139 0.11420703346600512
112499998 -0.05786041805984726 0.11553552452222673
114285712 -0.056878480108339936 0.11758080458460031
116071426 -0.056042701425179635 0.11894575967480178
117857140 -0.054515249079385944 0.12056138440449155
119642854 -0.053734707155236906 0.1228092596839342
121428568 -0.052922900932625805 0.1238055414135033
123214282 -0.05149206349546086 0.1254154155782208
124999996 -0.05050871339540766 0.12712295065475787
126785710 -0.04963615648267038 0.12823142134018453
128571424 -0.048495885779362674 0.13002765946796335
130357138 -0.04731222541353536 0.13217165567033215
132142852 -0.04636877994531561 0.13324063829328497
133928566 -0.045053889445813275 0.13487578087893184
135714280 -0.04356228206190726 0.13657203864192247
137499994 -0.04265572934797252 0.13818350347715389
139285708 -0.04151269031133299 0.1395988915521093
141071422 -0.04006306877437997 0.14123148330172294
142857136 -0.039123641649736134 0.1425837245628145
144642850 -0.03769207650156929 0.1442903235007044
146428564 -0.03640309958655587 0.14578216642366335
148214278 -0.03554412791596158 0.14720152597506894
149999992 -0.03400875013979639 0.1487542968836965
151785706 -0.032722016878000706 0.15023159658024743
153571420 -0.03178921732216125 0.15171794487831702
155357134 -0.030151311404399993 0.15324075419615338
157142848 -0.02921128056004626 0.15461367034694165
158928562 -0.027957824547273257 0.15604523570839834
160714276 -0.026503773810626876 0.15741335550146604
162499990 -0.02487805879207425 0.15917894067614602
164285704 -0.024198519769589664 0.16042586041429371
166071418 -0.022460901599717486 0.16197539925650348
167857132 -0.021232659875780446 0.16360822541994835
169642846 -0.019749594719918502 0.16468379165591293
171428560 -0.018022949811236557 0.16607260159977233
173214274 -0.017008282013075034 0.1676334263333109
174999988 -0.015516985674583223 0.1691134528276839
176785702 -0.014309347787202985 0.17046616972388448
178571416 -0.012825471595221858 0.17176146986935611
180357130 -0.01151915462543246 0.17304325369900703
182142844 -0.009868751011129889 0.1744884673223069
183928558 -0.008223933623644425 0.1759440596591311
185714272 -0.006591348462985634 0.1768347418560222
187499986 -0.005477033889420615 0.1785224146560666
189285700 -0.003733567144770461 0.17965109061003795
191071414 -0.0021008078900878395 0.1810465148917904
192857128 -0.0008369801309500791 0.18219574421052329
194642842 0.0009514823617499203 0.18350943898937555
196428556 0.00238855309247758 0.18481705009590307
198214270 0.0035086897359165475 0.18590215362061374
199999984 0.005203642805108477 0.1866514695926934
201785698 0.006749435682271054 0.1882472955903803
203571412 0.008356961760652268 0.18946572501825576
205357126 0.010010198191774828 0.19030235606207102
207142840 0.011486318615043553 0.191774863254423
208928554 0.013127418590260356 0.1929677595379999
210714268 0.014042009943570462 0.1941290885993052
212499982 0.016507373776780607 0.1953414662992653
214285696 0.018367732599543034 0.19643867378933713
216071410 0.019765223048843306 0.19739590674133525
217857124 0.02165857350044838 0.19846290546978268
219642838 0.0231034534727151 0.19956120308831005
221428552 0.02457998865766104 0.20083700534666998
223214266 0.026830262692866518 0.20188741175865327
224999980 0.02838215846584905 0.20284800113046203
226785694 0.029881836524438446 0.20373619122196301
228571408 0.03168463671755919 0.20472547207233588
230357122 0.032723209576151525 0.20549333976526477
232142836 0.03521848148806541 0.20688164334854026
233928550 0.03661718357827293 0.2076801112777049
235714264 0.03796133132759609 0.20878587397710321
237499978 0.0396112321176689 0.20936118117050018
239285692 0.040949217086425696 0.2101851992736855
241071406 0.043483379708586796 0.21111086116205915
242857120 0.04441568385610681 0.21242073746879148
244642834 0.04687845542603968 0.21282386831424313
246428548 0.04841350214436188 0.21378350981846223
248214262 0.05004528031467575 0.21431900823712402
249999976 0.0520089774672842 0.21537122345129575
251785690 0.05411794400441331 0.2161047881532025
253571404 0.055964810681624344 0.21674083923037304
255357118 0.05770400079289261 0.21748604539033464
257142832 0.059418147852092096 0.21810267268825106
258928546 0.060873185761214865 0.21903366156802165
260714260 0.06281255930987059 0.2197633247766774
262499974 0.06460960980825682 0.2202309388705859
264285688 0.06647514241106105 0.2211849262268199
266071402 0.06815058299838467 0.22165026981592298
267857116 0.07042845892837787 0.22291535757816344
269642830 0.07166043532915888 0.22342830058014546
271428544 0.07440839931553078 0.22378229029811386
273214258 0.07615355170820037 0.2241084868740652
274999972 0.07783586921753978 0.22510312158431556
276785686 0.07953005879150493 0.22613578822798355
278571400 0.0814077610945739 0.22650520253668494
280357114 0.08323071944415356 0.22743420772559397
282142828 0.08466228183842327 0.227713820344131
283928542 0.08723263300725724 0.22798895143820067
285714256 0.08815908611387845 0.22893739685256406
287499970 0.0910867928456813 0.22919761022924162
289285684 0.09326584441749147 0.22966792932483604
291071398 0.09479833076737415 0.2305701332691524
292857112 0.09628624852494523 0.23080076527645974
294642826 0.09845801383093927 0.2315666717345526
296428540 0.10192174030584675 0.23155346457497214
298214254 0.10222355370193613 0.2327231520358456
299999968 0.1043793181772718 0.2328159602894204
301785682 0.10681935212800701 0.23309504089854852
303571396 0.10852088726486243 0.2341105118563814
305357110 0.1112306726878651 0.23389574554322118
307142824 0.11278675512623827 0.23433634204769704
308928538 0.11460878770738159 0.23475082090131602
310714252 0.11737671245137495 0.23468493494692053
312499966 0.1193355181771911 0.23504388167649048
314285680 0.12064678292036858 0.23628435984206406
316071394 0.12341781641266591 0.2359341860994119
317857108 0.12512505481289896 0.2366826502063322
319642822 0.12676536775327926 0.23751369599727068
321428536 0.12935033258519127 0.23745061497663375
323214250 0.1319105051820235 0.23751803690498755
324999964 0.1325500231176615 0.2379441440280043
326785678 0.13592954598697526 0.2379636703644003
328571392 0.1373504727571329 0.23822884823491391
330357106 0.13868919981067102 0.23939550008296523
332142820 0.14147405844634867 0.23916004025941323
333928534 0.14398606542103665 0.2391918837550658
335714248 0.14607003312274225 0.2396505985142326
337499962 0.14877053256949982 0.23928093804734774
339285676 0.15019013290073518 0.2398396893481725
341071390 0.15169581406557917 0.24005312551021685
342857104 0.15499849523620515 0.2396621637839013
344642818 0.15791777933710968 0.23929548592593114
346428532 0.15774621279625087 0.24088751503174521
348214246 0.1602502476171064 0.24033625830254146
349999960 0.16259097033072287 0.2408092487353731
351785674 0.1651982600761794 0.24032528174583084
353571388 0.16674950522921236 0.24033450252330482
355357102 0.16891399904960894 0.24134910151532038
357142816 0.17079692412171946 0.24089599834167985
358928530 0.17303374121953405 0.24133089981286127
360714244 0.17603398554651634 0.24070831899498907
362499958 0.17792534545468194 0.24061910692829025
364285672 0.17956410527066954 0.2406350457209749
366071386 0.18175943722944418 0.2408788937120731
367857100 0.1837926395360426 0.24072649961878972
369642814 0.1857895755564126 0.241280203662227
371428528 0.1882914926436639 0.2405369590260239
373214242 0.1901720541507293 0.2406405632422632
374999956 0.19255076355387615 0.24017483803181483
376785670 0.1941731306892804 0.24026750249705855
378571384 0.1958923502737296 0.24133062864367705
380357098 0.19900807194074657 0.23987184182502094
382142812 0.20080793339401531 0.23997713796264358
383928526 0.20361023591639166 0.2391387830136249
385714240 0.2053799223254339 0.23905710275891687
387499954 0.20787222771522434 0.23882956865509458
389285668 0.20925711952120124 0.23912484139959675
391071382 0.21067924043693195 0.23926616824132865
392857096 0.21284445730865023 0.23935434796914762
394642810 0.21522691609267558 0.23819403423315044
396428524 0.2176503225450718 0.237844760418874
398214238 0.21884778969754842 0.23815056553071098
399999952 0.22105448570867212 0.23702154908265347
401785666 0.22318351391309865 0.23654106218433404
403571380 0.2256624023293577 0.2357557431754365
405357094 0.2278226727053091 0.23620646423255334
407142808 0.22881940918120114 0.23688074614808022
408928522 0.23162971717098776 0.23485230177125294
410714236 0.2338406259998935 0.23524728281567725
412499950 0.2351332007313324 0.2351544694220582
414285664 0.23643934075617004 0.2356884511566671
416071378 0.2392871295786259 0.2332936132249211
417857092 0.24010950539821205 0.23477040021860746
419642806 0.2428033174065224 0.2335895584296694
421428520 0.24475581492054138 0.2321813877393325
423214234 0.24906252197863094 0.23075872350914298
424999948 0.2495933228141027 0.2312838427000381
426785662 0.2520332722934361 0.23004386986949107
428571376 0.25414990626930767 0.22964082266185523
430357090 0.2561775351951539 0.2296326102363138
432142804 0.2577150615439048 0.2289242290028968
433928518 0.26009847872766106 0.22813645416345488
435714232 0.26140752926784927 0.2280229900464086
437499946 0.2641881947907812 0.22671500300636305
439285660 0.2672950957169155 0.2249409711046801
441071374 0.2684327683462103 0.22517110816956779
442857088 0.2706133571846783 0.22521217073903801
444642802 0.27263681602947465 0.2233175206937735
446428516 0.27462652009004807 0.22280691859894028
448214230 0.2771903243962931 0.22190889493282642
449999944 0.27813555387081407 0.22224954069002326
451785658 0.279748361033483 0.22120373016532255
453571372 0.28286214793191555 0.21960152671950328
455357086 0.28463143265503876 0.21942142555081673
457142800 0.2863817655241103 0.21937801722090594
458928514 0.2876718130830361 0.21835238824685607
460714228 0.2910875992621809 0.21498715330347543
462499942 0.29265218518583924 0.21509349954837467
464285656 0.2954122820798871 0.21405767698960426
466071370 0.29655036983212396 0.21384628072386574
467857084 0.29852212423015384 0.21372594673189257
469642798 0.29970538857400003 0.21278541375292062
471428512 0.30156135170221254 0.2129593715749606
473214226 0.3048394972183523 0.21057359996457822
474999940 0.3061207246152616 0.21016555162205494
476785654 0.307930257110951 0.20974942710185812
478571368 0.31093626172677963 0.2081633906492463
480357082 0.3137150900239688 0.20527663645886818
482142796 0.3145653364068475 0.20649428475018058
483928510 0.31684557154110843 0.2037690432694205
485714224 0.3193645423681283 0.2031313373759602
487499938 0.32043318248889807 0.20314596804699472
489285652 0.3226809307231407 0.2021110219942818
491071366 0.32385395828996444 0.20189904796889763
492857080 0.32646687126128116 0.20012359540542574
494642794 0.32775051748468037 0.19977710044740882
496428508 0.3299553332649563 0.1983961973183436
498214222 0.3308305926412889 0.19836064050193958
499999936 0.3337200174573405 0.19661781537684697
501785650 0.3358533722657133 0.19497581484522375
503571364 0.33904221474722374 0.19146692800342044
505357078 0.33920933122868313 0.1926357208209958
507142792 0.34220661343173014 0.1901933169415994
508928506 0.34347256509601476 0.19068729789621924
510714220 0.34496982706205886 0.1885839016966635
512499934 0.34743366722236213 0.18640765233741466
514285648 0.3496925341070917 0.18557003984245282
516071362 0.35084568347176587 0.18512465801730946
517857076 0.35362639586477546 0.1826544853580472
519642790 0.35664794152962237 0.1802071978704946
521428504 0.35539407498654124 0.18218299644143815
523214218 0.35869834154900443 0.18160027494622782
524999932 0.3610553519213391 0.178035219320296
526785646 0.3623964009700463 0.17801033851322642
528571360 0.3643575946211779 0.1763537012301616
530357074 0.36669336315588935 0.17302073346078567
532142788 0.36812378652387434 0.17493352038501953
533928502 0.3687556493325264 0.17488935816032686
535714216 0.37220950860466184 0.16884117378348498
537499930 0.37276844482927474 0.17176919415587963
539285644 0.3749498079807716 0.16816012118267518
541071358 0.3765464186262606 0.16760678061770565
542857072 0.37965506782452313 0.1637352000925384
544642786 0.3793938737593484 0.1666999641095743
546428500 0.38288740955359546 0.16175593889720946
548214214 0.3845420130250512 0.16021489667108904
549999928 0.3860160154251765 0.15960249420340838
551785642 0.38820090646916394 0.1579024318809956
553571356 0.3894027275313687 0.15682937545583606
555357070 0.39020139457755376 0.15642921611434615
557142784 0.3922398583397753 0.15500284168277223
558928498 0.39418110759912894 0.15205294547308185
560714212 0.39560482363851707 0.1507737176054227
562499926 0.39588402687557095 0.15159763095741768
564285640 0.39793726536642465 0.1514316254041897
566071354 0.40015876140674195 0.14782813322523553
567857068 0.4021963189103771 0.14595652685117066
569642782 0.4020035724223997 0.14558895522823798
571428496 0.405568513138636 0.14191863933519056
573214210 0.40718131937785795 0.13838623861099625
574999924 0.4072078113661215 0.13952666080168466
576785638 0.4113988571951128 0.13334027832480003
578571352 0.4111464238759056 0.1380374139311866
580357066 0.4130238747218634 0.13357933488753307
582142780 0.4146232231532712 0.13172650909276953
583928494 0.4176151278605198 0.12906093957269082
585714208 0.4185950152535713 0.1285520010235672
587499922 0.4191561409144036 0.12753963860878897
589285636 0.4209732329325718 0.12509744624713526
591071350 0.4217808407821853 0.1261687622619189
592857064 0.42415350278485114 0.12200507771577897
594642778 0.42527617517112154 0.12072549668983094
596428492 0.4257466006075895 0.12001456155133272
598214206 0.4288550241979473 0.11552802800083897
599999920 0.42908045285144314 0.11429291233669665
601785634 0.4315165240683986 0.11284315621821171
603571348 0.4315701874604849 0.11181863180901146
605357062 0.4345423822919849 0.1086790599400502
607142776 0.436449148698384 0.10578026140401155
608928490 0.437995465838044 0.10464203153293672
610714204 0.43854086391234587 0.1060611566490596
612499918 0.4407525492583444 0.10301647916761457
614285632 0.4411497210958786 0.10070976588025754
616071346 0.4426551307147239 0.09934264791632011
617857060 0.4439763883777509 0.09793740147201312
619642774 0.4456395991483628 0.09594191703226386
621428488 0.44695778586558205 0.09416827646218727
623214202 0.4489282501434522 0.08958499968796158
624999916 0.45030005030384507 0.0881147641728577
626785630 0.451722312699597 0.08562825112349869
628571344 0.4533686583529582 0.08257048972200609
630357058 0.45301355977770924 0.08399855474349749
632142772 0.455629235764602 0.08428935242209133
633928486 0.45627565369385364 0.08203472782940456
635714200 0.4576942440698256 0.07816829023339462
637499914 0.4595331361700838 0.07607466934194047
639285628 0.46126627614903526 0.07307165465600138
641071342 0.4622934631693441 0.07231943106458481
642857056 0.4637650343364829 0.07345937254822728
644642770 0.4638091346731985 0.06864541034259733
646428484 0.4659126018003339 0.06618063714669582
648214198 0.4678936991148235 0.06404773073034402
649999912 0.46810112235060813 0.06176731408654712
651785626 0.47004786111251273 0.05995265036030051
653571340 0.47169101303083577 0.05813390947843244
655357054 0.4723869075098439 0.05673687661029201
657142768 0.4728628471411594 0.05557555189558489
658928482 0.4720854361841906 0.05691943027701294
660714196 0.47611337253682545 0.05194920718147984
662499910 0.4773164505376031 0.04716981300371836
664285624 0.4779968518476599 0.04396431659394122
666071338 0.47844898822782084 0.045247104303778686
667857052 0.4795355137855169 0.04462678955327679
669642766 0.4808200750175201 0.03885449224855019
671428480 0.48281933635902485 0.03674867193645214
673214194 0.4829221828345098 0.03411699870074868
674999908 0.4849608024448342 0.03537249587066371
676785622 0.4854020516844781 0.032046781267651134
678571336 0.48609169730381147 0.02990633658900551
680357050 0.48771860941337897 0.02884876769131849
682142764 0.48844239456346833 0.03008810656790596
683928478 0.49043366359260593 0.02369562964634742
685714192 0.490998092461368 0.022663162104906223
687499906 0.4912570686719212 0.018053495626627326
689285620 0.49313158370865784 0.020871896617143185
691071334 0.49388017483038293 0.016987720075227267
692857048 0.494231307598775 0.014928094406433222
694642762 0.4972282287567679 0.012950446236321064
696428476 0.49676876864770975 0.009739724554663202
698214190 0.49671148023255085 0.004517046933532814
699999904 0.49877219977499127 0.005081296340909753
701785618 0.5000646574309991 0.0006926108127506472
703571332 0.5003215579984547 0.0021231529097024845
705357046 0.5020717590268088 -0.0068078444046811215
707142760 0.5024017188764545 -0.005115679052725622
708928474 0.5023133607475537 -0.0051921761080608074
710714188 0.5020316341990543 -0.008792422655880249
712499902 0.503509554524223 -0.015020052046922139
714285616 0.5037848998060884 -0.015382828062819348
716071330 0.5082062693097105 0.0927613129352624
717857044 0.5057600770021116 -0.018927616885541745
719642758 0.5069960489072601 -0.022661516392758273
721428472 0.5072229624470646 -0.02403269771005151
723214186 0.5092082518158378 -0.025863361199962503
724999900 0.5094508923597091 -0.026757511634631997
726785614 0.5108550388702545 -0.02657642444616537
728571328 0.511346719615165 -0.03186763781422426
730357042 0.5118586039220581 -0.02988268183615756
732142756 0.5132290004254061 -0.03819307567612183
733928470 0.5132454289872681 -0.035508805759128466
735714184 0.5146061726354118 -0.040174234594243664
737499898 0.5146974310916835 -0.042450389472080644
739285612 0.5149689280724941 -0.045044635320899036
741071326 0.5157528868218568 -0.047294890475897036
742857040 0.5166430277742211 -0.0488066498638434
744642754 0.5163016930044549 -0.052579867178405106
746428468 0.5174452839245236 -0.057186320305771324
748214182 0.5188416748514059 -0.055546243846137405
749999896 0.5180369818862081 -0.05712483254938897
751785610 0.5187192393383608 -0.06163349191631479
753571324 0.5204157015935589 -0.06471251149589854
755357038 0.5202881925168644 -0.06627637427790771
757142752 0.5205048116346414 -0.07043775743185535
758928466 0.5210951387818531 -0.0699069750346185
760714180 0.5214915492723443 -0.07457367153657643
762499894 0.5212410726440184 -0.0733922645880363
764285608 0.5218780402010862 -0.0772384994103117
766071322 0.5226178606388671 -0.08078856408893324
767857036 0.5227888158086873 -0.08336129331650619
769642750 0.5236162787860592 -0.0841706774315843
771428464 0.5252414766435295 -0.08423834731487129
773214178 0.5238958426299068 -0.09079603613992832
774999892 0.5248519969691162 -0.09449444818833383
776785606 0.5253964191304129 -0.0931256732431533
778571320 0.5257762115807267 -0.10185653563434369
780357034 0.526354018006343 -0.09921470308284425
782142748 0.5266888591374395 -0.09850626307581364
783928462 0.5270817988194306 -0.11032328130826054
785714176 0.5267956333939326 -0.10943159910643173
787499890 0.52784019903644 -0.11074935167739101
789285604 0.5279320159823285 -0.11131171219006163
791071318 0.5285900731367149 -0.1134202499670363
792857032 0.5279291971264544 -0.11614675312866758
794642746 0.5291117345997611 -0.12305653628320085
796428460 0.5293781209714431 -0.12440649906867034
798214174 0.529630596418224 -0.12153603525573994
799999888 0.5297570655698145 -0.1272871084873512
801785602 0.5281049100439328 -0.13606885243146616
803571316 0.5310481833249505 -0.12865797326343775
805357030 0.5313879502277471 -0.13320694359119414
807142744 0.5298764889031947 -0.13964613394277176
808928458 0.5286759660879528 -0.14478929136640642
810714172 0.5315506732518148 -0.1438553907192799
812499886 0.5306282474531235 -0.14775109352585775
814285600 0.5302365645663929 -0.14952870893292072
