# HZ S RI R 50
100000000 0.1619355735938889 0.018882839561860664
101785714 0.16226639902024362 0.018712515066340918
103571428 0.16278679599715803 0.019164942619052834
105357142 0.16306133160749678 0.01970753246229003
107142856 0.16315101216827105 0.019364528500869997
108928570 0.16359087993167884 0.019867366787734934
110714284 0.16389369626431163 0.01995873820678415
112499998 0.1640426218349662 0.02058891451920477
114285712 0.1644337329150102 0.020979830275520275
116071426 0.16474702589981252 0.020893619576384383
117857140 0.16539778870788477 0.021170808371765524
119642854 0.16561308933891133 0.021610471126989047
121428568 0.16576304336451173 0.02184278212198753
123214282 0.16662344159801057 0.021993398233446027
124999996 0.16689732685548275 0.02210385969196966
126785710 0.16737361350937924 0.02220377717398646
128571424 0.16769786092841052 0.022644763625000636
130357138 0.1683043624245371 0.022758270437776017
132142852 0.16871190553801815 0.02284729244082225
133928566 0.16900907455599845 0.023296329645397903
135714280 0.16953357414638803 0.023689569939283683
137499994 0.17007271900175785 0.023973170535108706
139285708 0.17034531255823981 0.024094808109913806
141071422 0.17051186961203355 0.02392563859263534
142857136 0.17117885992722603 0.024616726882144602
144642850 0.17172259759438568 0.02469777829680635
146428564 0.17191433814944276 0.024641521006527473
148214278 0.17282649882442294 0.0249573407419776
149999992 0.1731343733923862 0.025004354884420137
151785706 0.17333435907884023 0.025678263353913017
153571420 0.17412687289817624 0.025603303262757775
155357134 0.17454999558038847 0.025922614156644708
157142848 0.1751100515181931 0.026353669746781275
158928562 0.17525637338073197 0.026570235035616386
160714276 0.17592354622375722 0.02676914755518833
162499990 0.17660073349346217 0.02667287238334105
164285704 0.17695712587212126 0.026999006886980224
166071418 0.17755465857662145 0.027380579626729677
167857132 0.17804686279010148 0.027710218560039745
169642846 0.17838729817142568 0.027758495058851817
171428560 0.1788113493852581 0.027905200522225435
173214274 0.1796206109564791 0.02770663379894261
174999988 0.1800553090033074 0.028425291100709335
176785702 0.18061640230534542 0.02856081490483956
178571416 0.18098363856908192 0.028446464742155297
180357130 0.1818078638810655 0.028936898838930716
182142844 0.1822187755750114 0.02910764006568013
183928558 0.18283872828448905 0.029324622114746818
185714272 0.1836301925400585 0.028984898636315294
187499986 0.18402237711233632 0.02981333336109195
189285700 0.18472404829835243 0.029568066758898403
191071414 0.18503359958579008 0.029374587099372462
192857128 0.18544434279316313 0.029808920472268567
194642842 0.18626797820507868 0.030338406146683965
196428556 0.18658190912561068 0.030248883594957518
198214270 0.18706684384880803 0.030728117026882853
199999984 0.1876224046796566 0.03045456762501991
201785698 0.18808628806065544 0.03128954599019332
203571412 0.18903991145239651 0.030938479916811628
205357126 0.18928950505306444 0.03144965137622985
207142840 0.18980310782499804 0.03137482295769024
208928554 0.1902788623602174 0.03166011288763018
210714268 0.1906322147696057 0.03230550442599308
212499982 0.19188870974930775 0.03188520773118801
214285696 0.19225241572046126 0.03168652543748257
216071410 0.1926707747385504 0.03223366964799473
217857124 0.19335516887130821 0.032465162068138216
219642838 0.19382126712843403 0.03223406351784106
221428552 0.19427583215153632 0.03271765716739397
223214266 0.1949955206334911 0.03317079047320734
224999980 0.19568202207041588 0.032979667617324585
226785694 0.19606595502299437 0.032849491389307976
228571408 0.1966737017792567 0.032654682167038
230357122 0.19712907203219587 0.03302858568039209
232142836 0.19769426244902757 0.03293617926506841
233928550 0.19864776565212464 0.03298980111428245
235714264 0.19894917014440064 0.033106795206216594
237499978 0.19925806396966206 0.033381245669719305
239285692 0.19998150834830805 0.03336441955957445
241071406 0.20087297873565949 0.03274172577943655
242857120 0.20101954299736738 0.033447262756420654
244642834 0.20174658003664991 0.033874659242205354
246428548 0.20236049586173901 0.03391271083717442
248214262 0.20284173455994775 0.03306479273299535
249999976 0.20351189030352543 0.03329124199469747
251785690 0.20426210444610413 0.033020242247325006
253571404 0.20488030999631898 0.033178779294763025
255357118 0.20531253244388975 0.03340287654938257
257142832 0.20612118517019437 0.03314282768301891
258928546 0.20625158655377923 0.03329111549573861
260714260 0.20716587898509925 0.03302505879705344
262499974 0.20795602393299673 0.03328663032874403
264285688 0.20840664776558912 0.03288175838718559
266071402 0.20878321497260993 0.03274693188574136
267857116 0.2096526355903691 0.033413778560606865
269642830 0.21041769845839103 0.03344245336734629
271428544 0.2114235047695292 0.032697419565476504
273214258 0.21119414560539107 0.03298024078755473
274999972 0.21206795221652727 0.03260040931991467
276785686 0.2130014339428297 0.031789406492258976
278571400 0.2135449792177473 0.03244467332427973
280357114 0.21460194521393244 0.031781270484385754
282142828 0.2151028793115924 0.03189922284173183
283928542 0.2160355323058908 0.031637151723246985
285714256 0.21628630672284027 0.03179770887286369
287499970 0.21757506856330044 0.031138062601725906
289285684 0.2176764609001518 0.0315189261863402
291071398 0.21820433745667905 0.03155763563685595
292857112 0.2188190081444817 0.03192254928122342
294642826 0.21953871396155178 0.03188908882768781
296428540 0.22084353039050397 0.030624289122445334
298214254 0.22104327849132754 0.03127744911053655
299999968 0.22165226758040363 0.03002951412765993
301785682 0.22241417560422813 0.030542651620736504
303571396 0.22336242322980637 0.030412664176195873
305357110 0.2238050227713444 0.030535129579761303
307142824 0.22447924266707633 0.03016076129374087
308928538 0.22527589527172973 0.030126247349382542
310714252 0.22595210398561857 0.02950684438791279
312499966 0.2269764686476743 0.028532365827548478
314285680 0.22745423966306214 0.02921588885556586
316071394 0.22861572257543053 0.028306371016312948
317857108 0.22879331582470913 0.028487786583386184
319642822 0.22995509976201348 0.02835101246983567
321428536 0.23047214922065112 0.028337723930732854
323214250 0.23158154939958922 0.02784423791151374
324999964 0.2320419422975558 0.027081020085694248
326785678 0.23250897256478772 0.027442534323651888
328571392 0.2332986237165306 0.027765669924734677
330357106 0.23408882404118628 0.02746852443515438
332142820 0.23510123093103505 0.027049354036756207
333928534 0.23553797857621886 0.026517404199082786
335714248 0.23693510796295403 0.026452956689229614
337499962 0.23716556465540548 0.02634192743440823
339285676 0.2382471420560182 0.02546449198037362
341071390 0.23875369188289322 0.025773291312250493
342857104 0.23979282542031624 0.0237924887502921
344642818 0.24056654849063913 0.02458345077340477
346428532 0.24082772127918783 0.024981491907212917
348214246 0.24206470675789096 0.024252490999849306
349999960 0.2428640031725792 0.02422989146790581
351785674 0.2433261695392749 0.023760260620616522
353571388 0.24407847333002847 0.023507937403536714
355357102 0.24512662202296304 0.022776550703887323
357142816 0.24570670944234427 0.022929076345645227
358928530 0.24650144691387935 0.021988087114274923
360714244 0.24720005375195211 0.021242563916864195
362499958 0.24821121544313635 0.02213643095809534
364285672 0.24890854847100805 0.021327467804941092
366071386 0.24952373229908953 0.02129117634609023
367857100 0.2503972635227142 0.020644988296255794
369642814 0.25129412655746525 0.020731341969790543
371428528 0.2515430547163506 0.02084518325327419
373214242 0.25271965353996617 0.01975499496866895
374999956 0.25340373406158856 0.019226066787854303
376785670 0.2543051326942499 0.01890768274077594
378571384 0.25504551274991066 0.019403457776453276
380357098 0.2555289102374397 0.018212065410325492
382142812 0.2565722234310894 0.018908673547738092
383928526 0.2576681009429227 0.01783052754999294
385714240 0.25823031399329416 0.017792634335833286
387499954 0.25898480739306246 0.017044069748640693
389285668 0.25931498895455746 0.016325116596564902
391071382 0.26020513638932496 0.01742866141039891
392857096 0.2608585176947609 0.016209103469925695
394642810 0.26177354771807854 0.015360715994573115
396428524 0.26265422714158365 0.014451989333391627
398214238 0.2627495057687471 0.016054231290152734
399999952 0.26326908596817244 0.013681230829765623
401785666 0.2640945240761796 0.013973026450696716
403571380 0.26509562685803917 0.012885462128525751
405357094 0.26543245346328437 0.0120314910220602
407142808 0.26633323598199393 0.013962011778613335
408928522 0.26707120363362463 0.011167201760212214
410714236 0.2683019576071897 0.011317602698123456
412499950 0.26838213600104305 0.011115651992977083
414285664 0.2689641746772232 0.010013286315383134
416071378 0.2694775867706305 0.009813909422359345
417857092 0.2708752454866196 0.010417284675242734
419642806 0.27178121343628747 0.00813129879224587
421428520 0.2720539480688812 0.00900233786297898
423214234 0.27284722046722615 0.00854952591423552
424999948 0.2736277315910406 0.007646426763355644
426785662 0.2738327125579554 0.006763691972681897
428571376 0.2746770442581154 0.0061099784205003015
430357090 0.2760448630453897 0.004692654503436426
432142804 0.27620547345082735 0.0067308473303376104
433928518 0.2772545095405304 0.004010523701857793
435714232 0.2775594839686926 0.003071595395644706
437499946 0.2783394058652368 0.002972047035034664
439285660 0.27870282673923974 0.003321111363099301
441071374 0.28013881627998266 0.001679809022289408
442857088 0.28068466883487164 0.0019759969173515227
444642802 0.2813291431827862 0.0006909045168593566
446428516 0.2816788810836014 0.0019831471553605666
448214230 0.2824782268863765 -0.0005087702130223106
449999944 0.2829035252245132 -0.0012818385658152005
451785658 0.2839769052790711 -0.0021131355519988723
453571372 0.2844248448051575 -0.0033496525717641515
455357086 0.2856410564037619 -0.0031911887340856887
457142800 0.28620609677524883 -0.0036485367373583163
458928514 0.28641539885056816 -0.004463126193843605
460714228 0.2870176762130279 -0.004828635882710015
462499942 0.28786664448434146 -0.00556081942812444
464285656 0.2887172982878881 -0.006486028587663534
466071370 0.2899046539511121 -0.007727178193525188
467857084 0.2903045451078899 -0.007296249719822344
469642798 0.29089518337368375 -0.008210021730912617
471428512 0.2915823921554791 -0.009131972431070017
473214226 0.2921079904078015 -0.01037338915333648
474999940 0.29306221883558387 -0.011054370263485689
476785654 0.29365044090215253 -0.01248171130369146
478571368 0.29455681040812937 -0.013556174929763373
480357082 0.2947419405478506 -0.01419404540227266
482142796 0.2958180966204364 -0.014339959349766429
483928510 0.2966522399909183 -0.016807824675604207
485714224 0.2971728166736104 -0.014310841637728257
487499938 0.2976055026027646 -0.01644798120457111
489285652 0.29866886685905886 -0.016835630017580126
491071366 0.2992774503593731 -0.017252060299411728
492857080 0.3000571383846392 -0.01910957319827255
494642794 0.3006072887589175 -0.018738980225527172
496428508 0.3011762743790423 -0.02096898016551829
498214222 0.3019543349030174 -0.019891826703225642
499999936 0.3025397704644664 -0.023464920516766078
501785650 0.3032326348235554 -0.02299874133258145
503571364 0.30378134543406793 -0.023472073081810325
505357078 0.30426892236500563 -0.022816101172488466
507142792 0.30539820221064945 -0.025990464234275572
508928506 0.3062590308102383 -0.027451362834097867
510714220 0.30653734019013146 -0.02732535908825609
512499934 0.3073468094017902 -0.028296105541617406
514285648 0.3081589699758444 -0.0284375564309766
516071362 0.3090416879584033 -0.028933388590923065
517857076 0.30923409324713225 -0.032065601271563875
519642790 0.310018421191165 -0.0321646351286297
521428504 0.3107143252748515 -0.03249391208914504
523214218 0.31146747643536166 -0.033770892670467505
524999932 0.3120754732076696 -0.03389971283683738
526785646 0.313041973225742 -0.03512281059343917
528571360 0.31396207868207554 -0.0349433453950415
530357074 0.3139682495645137 -0.038763778905703254
532142788 0.31512486799264544 -0.038093871922083286
533928502 0.3160294737818492 -0.03886146695733873
535714216 0.3161084367235709 -0.03967891568901765
537499930 0.31687610167858055 -0.04035789997072325
539285644 0.3180789085353465 -0.0402612760391903
541071358 0.3183179965660302 -0.042549808197014226
542857072 0.31882067819333854 -0.04365640946137494
544642786 0.31929226921687137 -0.04521250406772772
546428500 0.320200092940433 -0.04452376426142156
548214214 0.3202302554953076 -0.04685779082645925
549999928 0.3215707254440657 -0.048343464257108004
551785642 0.3223601948402061 -0.04829146045944756
553571356 0.3225673370103688 -0.050540089118879236
555357070 0.3230625369575973 -0.04913329917194193
557142784 0.32432356979632854 -0.05209631529697948
558928498 0.32466937934633017 -0.05076264929455774
560714212 0.32504094472022055 -0.05367784286326207
562499926 0.3253946231486199 -0.054846791407850926
564285640 0.3267111936161393 -0.05419329842242576
566071354 0.32796494979497254 -0.056213072475508094
567857068 0.32820162547189796 -0.05589293821132993
569642782 0.3271465123674469 -0.05795149413340391
571428496 0.32790223665442486 -0.057570168599037456
573214210 0.32906643386252915 -0.06131947073051998
574999924 0.3299321847945022 -0.060958812951764
576785638 0.3294458120770317 -0.0637546509766583
578571352 0.3311111766529021 -0.06218063947870884
580357066 0.3309481851816693 -0.06213873300186423
582142780 0.3322073104709133 -0.06435460205326324
583928494 0.33286133244291777 -0.06781555279094297
585714208 0.33236095403726096 -0.06681400421937718
587499922 0.33361119909285486 -0.06819222537502015
589285636 0.33435964094232073 -0.06866864469469548
591071350 0.33444749619377095 -0.06993301443650539
592857064 0.33497581330441945 -0.06985833151976269
594642778 0.3354990053059784 -0.07210410958339009
596428492 0.33604360794189 -0.07284813812802376
598214206 0.33774338658948205 -0.07434641365675339
599999920 0.33631013604604226 -0.07675759970198705
601785634 0.3375208090479678 -0.07738343743327795
603571348 0.33756724990242665 -0.07673878764454505
605357062 0.33767296785019363 -0.07991307758916816
607142776 0.3387023884510457 -0.08111667203598162
608928490 0.33940972279082676 -0.08335944939939484
610714204 0.3407812936895077 -0.07990236985384595
612499918 0.3407872641536592 -0.08330978953981061
614285632 0.3410317334157426 -0.08534514677849052
616071346 0.3415769203588841 -0.08537925057874918
617857060 0.3413102029917774 -0.08701678855241513
619642774 0.34246119913687295 -0.0887215298673622
621428488 0.3435358706115184 -0.08871515638872027
623214202 0.3432036984204225 -0.09035339706383211
624999916 0.34394114736632087 -0.09092852651352441
626785630 0.3444843302854721 -0.09155126322792838
628571344 0.3448165291655687 -0.0928072407350164
630357058 0.3448648489228809 -0.09361125050594298
632142772 0.34655773215983704 -0.09440437255447476
633928486 0.3461045190760482 -0.09544653801415766
635714200 0.3464788124326098 -0.09688470626367579
637499914 0.3469438391911112 -0.09590374260294704
639285628 0.34746773817983967 -0.09801833602176993
641071342 0.34753662276356717 -0.1004479251395491
642857056 0.3490973786701475 -0.10220516813681714
644642770 0.34781250690875404 -0.10345468521483152
646428484 0.3486342777122969 -0.10417698668655054
648214198 0.3492804014918378 -0.10348347979278161
649999912 0.3493414346575798 -0.10534530640606544
651785626 0.3493940615509074 -0.10872084793122573
653571340 0.35013234572170193 -0.10857078767381065
655357054 0.3504597609529489 -0.11064851062990211
657142768 0.3505714228794878 -0.11040879286629424
658928482 0.35021825091038533 -0.11041367017393838
660714196 0.35125576973161177 -0.11375584034336404
662499910 0.351483391855739 -0.1150713923222784
664285624 0.35170505314033396 -0.1169319803351481
666071338 0.35244126225862793 -0.11553182663822634
667857052 0.3519217589607509 -0.11819426486968844
669642766 0.3519886038635767 -0.12087468945978301
671428480 0.35245424900783223 -0.12211654689833049
673214194 0.35312085923858305 -0.12202011364970299
674999908 0.3546711487018461 -0.12324485416871495
676785622 0.35392535983705753 -0.12446982795117469
678571336 0.35432691753431983 -0.12594663657167202
680357050 0.35474257414607574 -0.12720401310949142
682142764 0.35477094711897533 -0.1270576298058897
683928478 0.3552902634487771 -0.1291999971920401
685714192 0.354373787719209 -0.13063170363806645
687499906 0.3532672544110909 -0.13355867001839233
689285620 0.35517008553503576 -0.13301910630602803
691071334 0.3548425747584363 -0.1351011991494218
692857048 0.35666521704730225 -0.1356482271682218
694642762 0.3554339389064605 -0.14023542079675194
696428476 0.35582830665162124 -0.13941838109885707
698214190 0.3569147743708574 -0.13834036617675202
699999904 0.35573221929575194 -0.1428517763296147
701785618 0.3562827591620783 -0.14380892296028291
703571332 0.35590387996190337 -0.14536279222887577
705357046 0.35665512879304195 -0.14645450888682737
707142760 0.35627749798790587 -0.14792447415342935
708928474 0.3561406416399751 -0.1502032555784998
710714188 0.35655622950663207 -0.1479938671814164
712499902 0.3554900837932329 -0.1515122646893198
714285616 0.35537192156791897 -0.15502716539850298
716071330 0.30708302207251603 -0.23204111746818232
717857044 0.3571544263871679 -0.154666172157452
719642758 0.3579968803404071 -0.15532957058680383
721428472 0.35656750253680897 -0.15755738616630077
723214186 0.3563627863243005 -0.1619999772106837
724999900 0.35774717747031504 -0.16090226168272612
726785614 0.3585869081697094 -0.15966548529215063
728571328 0.35775200046677563 -0.16345969633104435
730357042 0.35590313393970785 -0.16663311868328493
732142756 0.3575324276426325 -0.16771328233954555
733928470 0.35731404249987514 -0.1686395655456174
735714184 0.3578305759188608 -0.17089565077801094
737499898 0.3580025411518443 -0.1706032928490681
739285612 0.35755714880576783 -0.17187534614827957
741071326 0.3574371423809678 -0.17362157213794743
742857040 0.35881700294988245 -0.17430983271735584
744642754 0.3560852922187182 -0.17802069570657075
746428468 0.3569989605242045 -0.18103021769142497
748214182 0.3584531659205098 -0.1795709919432373
749999896 0.3575462419631904 -0.18178500555607405
751785610 0.3553477948476539 -0.1848976473690355
753571324 0.3585255342643542 -0.18431532300973624
755357038 0.3581587608386956 -0.18489879735263418
757142752 0.3566594517967071 -0.18947738520088903
758928466 0.3568235487393729 -0.1912093852829871
760714180 0.3570523090940469 -0.19209007508937107
762499894 0.35658592220722646 -0.1927427406134454
764285608 0.35503164331725984 -0.19523020489428983
766071322 0.3569285514774377 -0.19736983083913903
767857036 0.35700916292850055 -0.19893851420470127
769642750 0.35703996757989825 -0.1995715888710541
771428464 0.3569767686564732 -0.2015050900722276
773214178 0.3565724921710502 -0.20299490327136774
774999892 0.3562703541753937 -0.20426734951736594
776785606 0.3572752629357387 -0.20352739303228004
778571320 0.35557565601304725 -0.20848491188964288
780357034 0.3567101516112881 -0.20983706245689962
782142748 0.35689370436745826 -0.21116980554027368
783928462 0.3557712084523725 -0.21462217660288685
785714176 0.35718985514669127 -0.21188489697978413
787499890 0.3572287392842899 -0.21413177469373612
789285604 0.358010178143451 -0.2124763815943021
791071318 0.35542071076922593 -0.22013649866455978
792857032 0.3564672493780249 -0.21784576506318373
794642746 0.35428169151625216 -0.22364997401542444
796428460 0.3563855532880876 -0.22236829767787233
798214174 0.35622660153621266 -0.2251007520283504
799999888 0.35755821105861874 -0.22211116634530195
801785602 0.3544647438227247 -0.22809159058323955
803571316 0.35694587326277394 -0.22698996706413752
805357030 0.35611210702054064 -0.23101718334967686
