# MHz S MA R 50
!   freq        S11              S21              S12              S22       
   1.000  1.00016    0.04  0.00003  141.85  0.31901   -0.41  0.00884  179.08
  15.995  0.99962    0.03  0.00010  138.57  0.31854   -1.35  0.00958 -175.53
  30.990  1.00013    0.08  0.00010  -30.43  0.31875   -2.28  0.00934 -172.80
  45.985  1.00010    0.11  0.00003 -174.71  0.31872   -3.28  0.00940 -167.56
  60.980  0.01005 -151.17  0.31897   -4.13  0.31890   -4.20  0.00971 -164.86
  75.975  0.01027 -144.75  0.31924   -5.10  0.31911   -5.16  0.00980 -160.64
  90.970  0.01060 -140.37  0.31932   -5.98  0.31902   -6.11  0.01011 -157.62
 105.965  0.01074 -135.32  0.31903   -6.98  0.31916   -7.03  0.01019 -155.33
 120.960  0.01078 -132.28  0.31942   -7.89  0.31898   -7.99  0.01046 -153.03
 135.955  0.01080 -129.26  0.31931   -8.87  0.31887   -8.97  0.01059 -152.42
 150.950  0.01080 -128.11  0.31856   -9.91  0.31781  -10.02  0.01094 -151.80
 165.945  0.01034 -126.52  0.31841  -10.85  0.31771  -10.96  0.01089 -151.77
 180.940  0.00998 -126.15  0.31852  -11.72  0.31797  -11.84  0.01072 -152.25
 195.935  0.00930 -126.06  0.31873  -12.64  0.31807  -12.81  0.01070 -152.64
 210.930  0.00856 -124.93  0.31867  -13.55  0.31798  -13.75  0.01033 -153.29
 225.925  0.00800 -125.33  0.31865  -14.55  0.31786  -14.64  0.01001 -153.58
 240.920  0.00718 -124.03  0.31862  -15.54  0.31786  -15.72  0.00961 -152.77
 255.915  0.00631 -123.36  0.31879  -16.31  0.31778  -16.49  0.00904 -152.91
 270.910  0.00555 -123.01  0.31885  -17.34  0.31798  -17.48  0.00851 -153.01
 285.905  0.00506 -124.91  0.31857  -18.27  0.31771  -18.48  0.00810 -151.98
 300.900  0.00496 -127.01  0.31842  -19.30  0.31771  -19.31  0.00796 -149.93
 315.895  0.00459 -125.71  0.31792  -20.04  0.31764  -20.18  0.00730 -148.48
 330.890  0.00668 -125.17  0.31731  -21.23  0.31751  -21.15  0.00723 -144.08
 345.885  0.00812 -119.81  0.31654  -22.24  0.31724  -22.10  0.00692 -139.39
 360.880  0.00761 -118.46  0.31672  -23.13  0.31746  -22.99  0.00666 -139.07
 375.875  0.00775 -115.29  0.31660  -24.03  0.31750  -23.93  0.00682 -135.02
 390.870  0.00762 -113.52  0.31681  -25.05  0.31752  -24.80  0.00671 -132.13
 405.865  0.00782 -115.41  0.31675  -26.00  0.31753  -25.88  0.00685 -131.26
 420.860  0.00804 -117.97  0.31626  -26.94  0.31722  -26.75  0.00674 -133.08
 435.855  0.00785 -120.23  0.31638  -27.91  0.31752  -27.66  0.00670 -133.56
 450.850  0.00802 -125.46  0.31677  -28.74  0.31744  -28.66  0.00680 -135.31
 465.845  0.00807 -127.21  0.31634  -29.61  0.31741  -29.51  0.00667 -139.16
 480.840  0.00809 -132.33  0.31636  -30.59  0.31766  -30.34  0.00637 -144.95
 495.835  0.00805 -137.27  0.31628  -31.41  0.31725  -31.38  0.00632 -148.22
 510.830  0.00751 -143.98  0.31645  -32.43  0.31749  -32.37  0.00589 -154.38
 525.825  0.00755 -151.10  0.31633  -33.46  0.31726  -33.23  0.00582 -162.77
 540.820  0.00735 -156.12  0.31579  -34.52  0.31702  -34.32  0.00592 -170.98
 555.815  0.00666 -158.94  0.31586  -35.19  0.31729  -35.06  0.00565 -176.66
 570.810  0.00698 -165.53  0.31565  -36.26  0.31689  -36.16  0.00527  174.74
 585.805  0.00685 -168.60  0.31573  -37.17  0.31694  -36.95  0.00496  167.69
 600.800  0.00637 -172.00  0.31560  -38.06  0.31727  -37.83  0.00469  161.26
 615.795  0.00644 -170.82  0.31621  -38.98  0.31756  -38.60  0.00463  164.00
 630.790  0.00644 -168.28  0.31648  -40.07  0.31791  -39.76  0.00410  160.86
 645.785  0.00640 -166.99  0.31661  -40.94  0.31778  -40.86  0.00346  164.71
 660.780  0.00648 -164.40  0.31577  -42.08  0.31756  -41.97  0.00358  167.44
 675.775  0.00691 -167.38  0.31430  -43.22  0.31680  -42.83  0.00360 -179.89
 690.770  0.00767 -164.68  0.31443  -43.85  0.31702  -43.46  0.00303 -168.79
 705.765  0.00880 -157.14  0.31393  -44.74  0.31655  -44.51  0.00388 -157.00
 720.760  0.00963 -156.39  0.31471  -45.54  0.31673  -45.20  0.00444 -151.87
 735.755  0.01093 -156.48  0.31482  -46.48  0.31738  -46.24  0.00523 -155.62
 750.750  0.01203 -158.04  0.31525  -47.43  0.31698  -47.10  0.00588 -154.09
 765.745  0.01291 -159.06  0.31609  -48.20  0.31752  -47.82  0.00663 -156.17
 780.740  0.01341 -158.47  0.31624  -49.18  0.31735  -48.97  0.00696 -157.65
 795.735  0.01449 -162.15  0.31545  -50.27  0.31723  -49.91  0.00745 -164.60
 810.730  0.01468 -166.49  0.31526  -51.39  0.31687  -51.08  0.00810 -171.91
 825.725  0.01547  177.77  0.31519  -52.40  0.31646  -51.93  0.00825 -179.34
 840.720  0.01534  169.99  0.31471  -53.08  0.31593  -52.86  0.00686  170.22
 855.715  0.01612  167.94  0.31552  -53.95  0.31612  -53.55  0.00762  164.03
 870.710  0.01572  165.82  0.31519  -54.98  0.31657  -54.52  0.00710  157.99
 885.705  0.01571  163.89  0.31517  -55.83  0.31680  -55.23  0.00668  144.27
 900.700  0.01506  159.39  0.31594  -56.94  0.31780  -56.34  0.00640  133.12
 915.695  0.01371  157.83  0.31640  -58.00  0.31770  -57.34  0.00630  123.44
 930.690  0.01220  158.57  0.31636  -58.71  0.31774  -58.36  0.00494  115.55
 945.685  0.01097  158.17  0.31613  -59.71  0.31749  -59.45  0.00458  107.88
 960.680  0.01075  160.88  0.31502  -60.77  0.31655  -60.39  0.00350   98.48
 975.675  0.01055  164.36  0.31435  -61.70  0.31636  -61.29  0.00268   99.12
 990.670  0.01085  173.20  0.31489  -62.61  0.31627  -61.83  0.00232  120.01
1005.665  0.01393  171.51  0.31511  -63.46  0.31644  -62.95  0.00253  175.02
1020.660  0.01972  154.84  0.31647  -64.54  0.31686  -63.48  0.00342  179.99
1035.655  0.01948  158.53  0.31663  -65.26  0.31754  -64.53  0.00505 -169.67
1050.650  0.01607  175.13  0.31640  -65.92  0.31728  -65.62  0.00669  177.01
1065.645  0.01751  172.19  0.31636  -66.93  0.31694  -66.42  0.00803 -176.04
1080.640  0.01909  167.67  0.31579  -68.35  0.31721  -67.83  0.00998  174.70
1095.635  0.02034  171.63  0.31350  -69.08  0.31653  -68.36  0.01135  168.79
1110.630  0.02080  165.57  0.31309  -69.89  0.31656  -69.33  0.01154  161.15
1125.625  0.02335  160.01  0.31320  -70.96  0.31642  -70.38  0.01343  157.59
1140.620  0.02422  158.29  0.31356  -71.63  0.31629  -71.10  0.01383  152.79
1155.615  0.02467  152.61  0.31468  -72.52  0.31725  -72.15  0.01412  141.82
1170.610  0.02490  146.08  0.31552  -73.70  0.31723  -73.10  0.01436  133.78
1185.605  0.02461  138.76  0.31439  -74.98  0.31860  -74.18  0.01287  133.49
1200.600  0.02575  135.20  0.31480  -75.41  0.31764  -74.70  0.01241  127.93
1215.595  0.02598  128.79  0.31445  -76.84  0.31781  -76.10  0.01190  120.02
1230.590  0.02630  128.56  0.31474  -77.72  0.31785  -77.14  0.01106  127.09
1245.585  0.02595  128.35  0.31394  -78.09  0.31672  -77.22  0.01044  133.12
1260.580  0.02471  129.27  0.31430  -79.60  0.31715  -78.60  0.00783  130.00
1275.575  0.02503  134.82  0.31596  -80.34  0.31829  -79.80  0.00743  144.62
1290.570  0.02787  131.75  0.31428  -82.09  0.31747  -80.65  0.00767  139.20
1305.565  0.03174  133.60  0.31442  -83.24  0.31716  -81.42  0.00881  177.93
1320.560  0.03765  127.29  0.31541  -84.91  0.31903  -83.11  0.01120  177.80
1335.555  0.04392  125.62  0.31348  -86.10  0.31761  -83.85  0.01276  177.71
1350.550  0.04802  132.05  0.31210  -86.85  0.31688  -84.34  0.01550  177.19
1365.545  0.05359  134.90  0.31224  -87.96  0.31680  -85.37  0.01786  173.85
1380.540  0.05676  131.14  0.31261  -88.91  0.31667  -86.12  0.01920  171.20
1395.535  0.05423  126.49  0.31387  -90.18  0.31587  -87.06  0.02169  167.26
1410.530  0.05818  120.87  0.31295  -90.88  0.31719  -87.90  0.02183  160.65
1425.525  0.06252  120.06  0.31364  -92.25  0.31765  -88.85  0.02313  156.38
1440.520  0.06417  117.98  0.31408  -92.87  0.31807  -89.16  0.02330  150.89
1455.515  0.07565  117.75  0.31238  -94.87  0.31680  -90.91  0.02229  151.53
1470.510  0.07258  112.03  0.31283  -96.20  0.31753  -91.89  0.02075  146.77
1485.505  0.08231  106.46  0.31248  -97.79  0.31787  -92.78  0.01838  143.71
1500.500  0.09304  108.20  0.31105  -99.31  0.31740  -93.26  0.01915  147.15
1515.495  0.09525  106.46  0.31120 -100.67  0.31812  -94.49  0.01618  151.16
1530.490  0.09524  106.61  0.31038 -101.84  0.31764  -95.87  0.01416  157.00
1545.485  0.09206   87.49  0.30267 -102.42  0.31744  -96.03  0.01224  166.04
1560.480  0.07997  108.74  0.31172 -102.34  0.31840  -97.11  0.01246  176.04
1575.475  0.08340  106.74  0.31270 -104.11  0.31715  -98.25  0.01376 -178.82
1590.470  0.11046  105.96  0.31099 -106.61  0.31718  -99.44  0.01609 -163.68
1605.465  0.11477  106.31  0.31143 -107.79  0.31822 -100.27  0.01867 -172.93
1620.460  0.11585  104.04  0.30814 -109.10  0.31744 -101.26  0.02131 -168.61
1635.455  0.11807  104.88  0.29122 -109.53  0.31650 -102.75  0.02232 -170.28
1650.450  0.99724   -7.25  0.04247  -24.75  0.31679 -103.16  0.02652 -175.01
1665.445  0.74234   -5.75  0.08725  -87.81  0.31589 -103.89  0.02699 -178.41
1680.440  0.41308    0.23  0.25578 -110.30  0.31599 -104.52  0.03032  178.19
1695.435  0.12200  103.28  0.31012 -113.37  0.31580 -106.00  0.02911  172.16
1710.430  0.12759   98.54  0.30864 -114.06  0.31682 -106.77  0.02788  162.61
1725.425  0.12662  100.68  0.30949 -115.20  0.31738 -107.77  0.02730  160.08
1740.420  0.13215   96.36  0.30843 -116.92  0.31687 -108.40  0.02481  157.17
1755.415  0.22968   18.02  0.23258 -113.99  0.31647 -108.69  0.02194  153.81
1770.410  1.00671   -5.30  0.03652  -28.76  0.31744 -110.52  0.02058  152.50
1785.405  1.00524   -5.28  0.03946  -29.83  0.31721 -111.17  0.02052  152.87
1800.400  1.00516   -5.82  0.03725  -31.40  0.31826 -111.82  0.01526  152.75
1815.395  0.99590   -6.84  0.03732  -33.24  0.31768 -113.38  0.01671  170.78
1830.390  1.00088   -7.09  0.03929  -34.67  0.31745 -114.53  0.01487  173.33
1845.385  1.00215   -7.22  0.03908  -35.75  0.31773 -115.47  0.01722 -170.75
1860.380  0.47352   -1.11  0.15915 -117.40  0.31710 -115.47  0.01877 -172.50
1875.375  0.14983  104.10  0.30817 -126.46  0.31672 -116.58  0.02309 -164.36
1890.370  0.15083  104.24  0.30818 -128.22  0.31653 -117.93  0.02583 -162.76
1905.365  0.15823  105.99  0.30714 -128.18  0.31729 -118.33  0.02834 -167.87
1920.360  0.16057  105.07  0.30700 -130.35  0.31786 -119.63  0.03155 -170.70
1935.355  0.16267  106.21  0.30681 -130.43  0.31805 -120.45  0.03155 -172.70
1950.350  0.16601  105.90  0.30674 -131.45  0.31817 -121.07  0.03657 -176.87
1965.345  0.16289  103.72  0.30736 -132.43  0.31800 -123.21  0.03628  177.59
1980.340  0.16561  100.84  0.30527 -133.42  0.31697 -123.63  0.03482  169.49
1995.335  0.16727  101.22  0.30320 -134.19  0.31598 -124.49  0.03334  169.10
2010.330  0.16818   99.66  0.30414 -134.32  0.31602 -124.77  0.03152  164.87
2025.325  0.16954   99.57  0.30441 -135.47  0.31547 -125.94  0.03078  160.27
2040.320  0.17108   98.93  0.30603 -136.46  0.31681 -127.10  0.02631  159.99
2055.315  0.17481   99.38  0.30747 -137.31  0.31695 -127.72  0.02317  157.55
2070.310  0.17279   99.75  0.31085 -139.25  0.31901 -128.71  0.02226  166.16
2085.305  0.16951  101.04  0.31274 -139.85  0.31942 -129.65  0.01939  174.62
2100.300  0.17091   99.92  0.31272 -141.76  0.31946 -130.68  0.01932 -173.24
2115.295  0.15781   78.38  0.23509 -142.45  0.31958 -132.55  0.01824 -171.21
2130.290  0.99730   -7.38  0.02566  -54.37  0.31814 -132.90  0.02326 -151.56
2145.285  0.66829   -2.83  0.15451 -142.70  0.31710 -133.61  0.02480 -157.26
2160.280  0.67932   -3.04  0.15070 -143.95  0.31570 -134.94  0.02927 -155.93
2175.275  0.17125   79.88  0.22786 -147.12  0.31505 -134.97  0.03342 -161.44
2190.270  0.99553   -6.76  0.02276  -53.47  0.31610 -136.57  0.03821 -164.01
2205.265  0.99965   -6.59  0.02089  -52.61  0.31756 -137.75  0.03848 -166.50
2220.260  1.00171   -6.13  0.01556  -52.21  0.31803 -137.67  0.04102 -168.47
2235.255  1.00089   -4.06  0.00025  157.75  0.32014 -139.67  0.03796 -176.22
2250.250  1.00055   -4.71  0.00023  140.39  0.31725 -140.96  0.04068 -177.23
2265.245  0.99902   -4.82  0.00042  172.20  0.31608 -142.31  0.03741  173.29
2280.240  0.99863   -4.37  0.00033  139.06  0.31486 -142.28  0.03738  172.62
2295.235  0.97635   -4.66  0.00031  158.70  0.31428 -142.95  0.03320  168.65
2310.230  0.96965    0.71  0.00021  110.59  0.31159 -143.19  0.02833  166.05
2325.225  0.98237    1.44  0.00016  116.97  0.31335 -143.98  0.02762  167.10
2340.220  0.98298    3.30  0.00020  114.02  0.31469 -144.59  0.02194  166.31
2355.215  0.97558    5.35  0.00023  151.64  0.31707 -146.59  0.02316  177.80
2370.210  0.99088    5.59  0.00020  119.55  0.31845 -147.00  0.01738 -177.11
2385.205  0.97463    4.81  0.00007  134.57  0.31871 -148.13  0.01737 -166.56
2400.200  0.97898    4.96  0.00007  148.07  0.31765 -150.13  0.02313 -152.45
2415.195  0.97913    4.98  0.00016  118.03  0.31631 -151.18  0.02548 -147.25
2430.190  0.98134    4.82  0.00009  131.98  0.31412 -151.44  0.02858 -159.07
2445.185  0.99024    6.25  0.00014  136.25  0.31275 -152.32  0.03514 -155.36
2460.180  1.00801    5.78  0.00012   91.05  0.31296 -152.65  0.03609 -155.27
2475.175  1.00651    5.80  0.00020   47.42  0.31458 -153.09  0.04089 -164.11
2490.170  1.00626    5.98  0.00016  102.00  0.31691 -154.38  0.04373 -170.59
2505.165  1.01044    5.88  0.00010  115.30  0.31798 -155.73  0.04164 -171.15
2520.160  1.00935    6.02  0.00004   65.57  0.31992 -156.45  0.04565 -177.01
2535.155  1.00426    5.61  0.00005  179.49  0.31790 -157.67  0.04145  177.41
2550.150  1.00793    5.93  0.00014   22.79  0.31519 -159.27  0.03978  173.85
2565.145  1.00862    6.20  0.00013   91.87  0.31468 -160.19  0.03938  163.33
2580.140  1.00739    5.86  0.00009  110.16  0.31233 -160.49  0.03607  158.78
2595.135  1.01184    5.94  0.00007  109.63  0.31251 -161.07  0.02977  160.59
2610.130  1.01180    6.02  0.00007  -55.15  0.31384 -161.81  0.02731  161.63
2625.125  1.00813    5.99  0.00011  -87.69  0.31602 -162.04  0.02316  164.65
2640.120  1.00798    6.20  0.00008   53.49  0.31825 -163.77  0.02268  173.70
2655.115  1.00916    5.61  0.00016  145.14  0.32023 -164.85  0.01938 -174.99
2670.110  1.00489    5.77  0.00009  120.33  0.32240 -165.75  0.02343 -160.58
2685.105  1.00933    6.19  0.00015  116.19  0.32216 -167.88  0.02619 -158.15
2700.100  1.00689    6.07  0.00008 -166.11  0.32093 -168.87  0.03160 -154.74
2715.095  1.00647    5.43  0.00006  -24.00  0.31786 -169.33  0.03751 -153.60
2730.090  1.01266    5.66  0.00029  -48.34  0.31628 -171.03  0.04107 -154.84
2745.085  1.00595    5.64  0.00031  -96.03  0.31453 -171.27  0.04406 -160.24
2760.080  1.01637    5.83  0.00005   70.83  0.31517 -171.50  0.05269 -167.63
2775.075  1.01151    5.87  0.00010   93.70  0.31747 -172.50  0.05116 -169.90
2790.070  1.01606    6.36  0.00017 -138.46  0.31777 -173.25  0.05243 -174.28
2805.065  1.01269    6.11  0.00001  119.10  0.31987 -174.58  0.05141 -178.98
2820.060  1.01244    5.46  0.00007 -171.18  0.32033 -175.55  0.04880  175.10
2835.055  1.01258    5.41  0.00028    5.00  0.31987 -177.52  0.04757  173.78
2850.050  1.00536    5.93  0.00054 -132.56  0.31857 -177.77  0.04405  169.89
2865.045  1.01340    6.65  0.00026   92.18  0.31556 -179.17  0.03689  167.67
2880.040  1.00645    6.37  0.00029  -44.21  0.31404 -179.59  0.03337  168.36
2895.035  1.00827    6.23  0.00027  -31.87  0.31527 -179.89  0.02695  173.51
2910.030  1.01044    5.55  0.00071   44.50  0.31430  178.86  0.02368  178.80
2925.025  1.00872    5.73  0.00022   59.36  0.31515  178.24  0.02138 -176.10
2940.020  1.00620    5.78  0.00049  -42.32  0.31830  177.51  0.02614 -165.21
2955.015  1.01019    5.64  0.00023   42.51  0.31869  176.05  0.02930 -153.65
2970.010  1.01481    6.40  0.00017    5.71  0.32024  174.88  0.03089 -155.42
2985.005  1.01146    6.28  0.00028   89.32  0.31909  174.29  0.04157 -147.64
3000.000  1.01139    6.16  0.00024   70.92  0.31919  173.00  0.04293 -150.81
